T08BC 17158:812 SEGGER J-Link V6.48a Log File (0000ms, 111333ms total)
T08BC 17158:812 DLL Compiled: Jul 30 2019 15:16:09 (0000ms, 111333ms total)
T08BC 17158:812 Logging started @ 2020-07-17 10:33 (0000ms, 111333ms total)
T08BC 17158:812 JLINK_ExecCommand("device = ATSAMD51P20A", ...). Device "ATSAMD51P20" selected.  returns 0x00 (0002ms, 111335ms total)
T08BC 17158:814 JLINK_GetHWStatus(...)  returns 0x00 (0000ms, 111335ms total)
T08BC 17158:814 JLINK_ClrRESET() (0001ms, 111336ms total)
T08BC 17158:821 JLINK_SetRESET() (0000ms, 111336ms total)
T08BC 17158:828 JLINK_ClrRESET() (0000ms, 111336ms total)
T08BC 17158:835 JLINK_ClrTCK()  returns 0x00 (0000ms, 111336ms total)
T08BC 17158:840 JLINK_SetRESET() (0000ms, 111336ms total)
T08BC 17158:845 JLINK_Clock()  returns 0x01 (0000ms, 111336ms total)
T08BC 17158:851 JLINK_TIF_Select(JLINKARM_TIF_SWD)  returns 0x00 (0001ms, 111337ms total)
T08BC 17158:852 JLINK_SetSpeed(50) (0000ms, 111337ms total)
T08BC 17158:852 JLINK_CORESIGHT_Configure()  returns 0 (0009ms, 111346ms total)
T08BC 17158:861 JLINK_CORESIGHT_WriteAPDPReg(DP reg 0x02, 0x00000000)  returns 0 (0001ms, 111347ms total)
T08BC 17158:862 JLINK_CORESIGHT_WriteAPDPReg(AP reg 0x00, 0x23000040)  returns 0 (0001ms, 111348ms total)
T08BC 17158:864 JLINK_CORESIGHT_WriteAPDPReg(AP reg 0x01, 0x41002101)  returns 0 (0001ms, 111349ms total)
T08BC 17158:865 JLINK_CORESIGHT_ReadAPDPReg(AP reg 0x03) -- Value=0x00000200  returns 0 (0002ms, 111351ms total)
T08BC 17158:867 JLINK_CORESIGHT_WriteAPDPReg(AP reg 0x01, 0x41002100)  returns 0 (0002ms, 111353ms total)
T08BC 17158:869 JLINK_CORESIGHT_WriteAPDPReg(AP reg 0x03, 0x00000010)  returns 0 (0001ms, 111354ms total)
T08BC 17158:870 JLINK_CORESIGHT_WriteAPDPReg(AP reg 0x01, 0x41002101)  returns 0 (0001ms, 111355ms total)
T08BC 17158:871 JLINK_CORESIGHT_ReadAPDPReg(AP reg 0x03) -- Value=0x00000210  returns 0 (0003ms, 111358ms total)
T08BC 17159:074 JLINK_CORESIGHT_ReadAPDPReg(AP reg 0x03) -- Value=0x00000210  returns 0 (0003ms, 111361ms total)
T08BC 17159:279 JLINK_CORESIGHT_ReadAPDPReg(AP reg 0x03) -- Value=0x00000210  returns 0 (0003ms, 111364ms total)
T08BC 17159:487 JLINK_CORESIGHT_ReadAPDPReg(AP reg 0x03) -- Value=0x00000210  returns 0 (0002ms, 111366ms total)
T08BC 17159:694 JLINK_CORESIGHT_ReadAPDPReg(AP reg 0x03) -- Value=0x00000210  returns 0 (0002ms, 111368ms total)
T08BC 17159:898 JLINK_CORESIGHT_ReadAPDPReg(AP reg 0x03) -- Value=0x00000210  returns 0 (0002ms, 111370ms total)
T08BC 17160:103 JLINK_CORESIGHT_ReadAPDPReg(AP reg 0x03) -- Value=0x00000210  returns 0 (0003ms, 111373ms total)
T08BC 17160:309 JLINK_CORESIGHT_ReadAPDPReg(AP reg 0x03) -- Value=0x00000210  returns 0 (0003ms, 111376ms total)
T08BC 17160:514 JLINK_CORESIGHT_ReadAPDPReg(AP reg 0x03) -- Value=0x00000210  returns 0 (0002ms, 111378ms total)
T08BC 17160:719 JLINK_CORESIGHT_ReadAPDPReg(AP reg 0x03) -- Value=0x00000210  returns 0 (0003ms, 111381ms total)
T08BC 17160:925 JLINK_CORESIGHT_ReadAPDPReg(AP reg 0x03) -- Value=0x00000210  returns 0 (0001ms, 111382ms total)
T08BC 17161:127 JLINK_CORESIGHT_ReadAPDPReg(AP reg 0x03) -- Value=0x00000210  returns 0 (0002ms, 111384ms total)
T08BC 17161:330 JLINK_CORESIGHT_ReadAPDPReg(AP reg 0x03) -- Value=0x00000210  returns 0 (0003ms, 111387ms total)
T08BC 17161:534 JLINK_CORESIGHT_ReadAPDPReg(AP reg 0x03) -- Value=0x00000210  returns 0 (0003ms, 111390ms total)
T08BC 17161:739 JLINK_CORESIGHT_ReadAPDPReg(AP reg 0x03) -- Value=0x00000210  returns 0 (0002ms, 111392ms total)
T08BC 17161:943 JLINK_CORESIGHT_ReadAPDPReg(AP reg 0x03) -- Value=0x00000210  returns 0 (0002ms, 111394ms total)
T08BC 17162:147 JLINK_CORESIGHT_ReadAPDPReg(AP reg 0x03) -- Value=0x00000210  returns 0 (0003ms, 111397ms total)
T08BC 17162:350 JLINK_CORESIGHT_ReadAPDPReg(AP reg 0x03) -- Value=0x00000210  returns 0 (0003ms, 111400ms total)
T08BC 17162:557 JLINK_CORESIGHT_ReadAPDPReg(AP reg 0x03) -- Value=0x00000210  returns 0 (0003ms, 111403ms total)
T08BC 17162:763 JLINK_CORESIGHT_ReadAPDPReg(AP reg 0x03) -- Value=0x00000210  returns 0 (0003ms, 111406ms total)
T08BC 17162:967 JLINK_CORESIGHT_ReadAPDPReg(AP reg 0x03) -- Value=0x00000210  returns 0 (0003ms, 111409ms total)
T08BC 17163:172 JLINK_CORESIGHT_ReadAPDPReg(AP reg 0x03) -- Value=0x00000210  returns 0 (0003ms, 111412ms total)
T08BC 17163:375 JLINK_CORESIGHT_ReadAPDPReg(AP reg 0x03) -- Value=0x00000210  returns 0 (0002ms, 111414ms total)
T08BC 17163:578 JLINK_CORESIGHT_ReadAPDPReg(AP reg 0x03) -- Value=0x00000210  returns 0 (0002ms, 111416ms total)
T08BC 17163:780 JLINK_CORESIGHT_ReadAPDPReg(AP reg 0x03) -- Value=0x00000210  returns 0 (0002ms, 111418ms total)
T08BC 17163:982 JLINK_CORESIGHT_ReadAPDPReg(AP reg 0x03) -- Value=0x00000310  returns 0 (0003ms, 111421ms total)
T08BC 17163:995 JLINK_ExecCommand("Device = ATSAMD51P20A", ...). Device "ATSAMD51P20" selected.  returns 0x00 (0002ms, 111423ms total)
T08BC 17163:997 JLINK_TIF_Select(JLINKARM_TIF_SWD)  returns 0x00 (0000ms, 111423ms total)
T08BC 17163:997 JLINK_SetSpeed(4000) (0000ms, 111423ms total)
T08BC 17163:997 JLINK_ResetPullsRESET(OFF) (0000ms, 111423ms total)
T08BC 17163:997 JLINK_Connect()InitTarget() start J-Link Script File: Executing InitTarget() (0001ms, 111424ms total)
T08BC 17163:997 InitTarget()Reset released!InitTarget() endInitTarget() end >0x10B TIF>Found SW-DP with ID 0x2BA01477 >0x0D TIF> >0x28 TIF> >0x0D TIF> >0x28 TIF> >0x0D TIF> >0x28 TIF> >0x0D TIF> >0x28 TIF> >0x0D TIF> >0x21 TIF> >0x0D TIF> >0x28 TIF>Scanning AP map to find all available APs >0x0D TIF> >0x28 TIF> >0x0D TIF> >0x21 TIF> >0x0D TIF> >0x21 TIF> >0x0D TIF> >0x28 TIF> >0x0D TIF> >0x21 TIF> >0x0D TIF> >0x21 TIF> >0x0D TIF> >0x28 TIF> >0x0D TIF> >0x21 TIF> >0x0D TIF> >0x30 TIF> >0x0D TIF>
 >0x21 TIF>AP[2]: Stopped AP scan as end of AP map has been reachedAP[0]: AHB-AP (IDR: 0x24770011)AP[1]: AHB-AP (IDR: 0x74770001)Iterating through AP map to find AHB-AP to use >0x42 TIF> >0x28 TIF> >0x0D TIF> >0x28 TIF> >0x0D TIF> >0x21 TIF> >0x0D TIF> >0x21 TIF> >0x42 TIF> >0x28 TIF> >0x0D TIF> >0x28 TIF> >0x0D TIF> >0x28 TIF> >0x0D TIF> >0x21 TIF> >0x0D TIF> >0x21 TIF>AP[0]: Core foundAP[0]: AHB-AP ROM base: 0x41003000 >0x0D TIF> >0x28 TIF> >0x0D TIF> >0x28 TIF> >0x0D TIF> >0x28 TIF> >0x0D TIF>
 >0x21 TIF> >0x0D TIF> >0x21 TIF>CPUID register: 0x410FC241. Implementer code: 0x41 (ARM)Found Cortex-M4 r0p1, Little endian. -- Max. mem block: 0x00001358 -- CPU_ReadMem(4 bytes @ 0xE000EDF0) -- CPU_ReadMem(4 bytes @ 0xE0002000)FPUnit: 6 code (BP) slots and 2 literal slots -- CPU_ReadMem(4 bytes @ 0xE000EDFC) -- CPU_ReadMem(4 bytes @ 0xE0001000) -- CPU_WriteMem(4 bytes @ 0xE0001000) -- CPU_ReadMem(4 bytes @ 0xE000ED88) -- CPU_WriteMem(4 bytes @ 0xE000ED88) -- CPU_ReadMem(4 bytes @ 0xE000ED88)
 -- CPU_WriteMem(4 bytes @ 0xE000ED88)CoreSight components:ROMTbl[0] @ 41003000 -- CPU_ReadMem(16 bytes @ 0x41003000) -- CPU_ReadMem(16 bytes @ 0xE00FFFF0) -- CPU_ReadMem(16 bytes @ 0xE00FFFE0)ROMTbl[0][0]: E00FF000, CID: B105100D, PID: 000BB4C4 ROM TableROMTbl[1] @ E00FF000 -- CPU_ReadMem(16 bytes @ 0xE00FF000) -- CPU_ReadMem(16 bytes @ 0xE000EFF0) -- CPU_ReadMem(16 bytes @ 0xE000EFE0)ROMTbl[1][0]: E000E000, CID: B105E00D, PID: 000BB00C SCS-M7 -- CPU_ReadMem(16 bytes @ 0xE0001FF0)
 -- CPU_ReadMem(16 bytes @ 0xE0001FE0)ROMTbl[1][1]: E0001000, CID: B105E00D, PID: 003BB002 DWT -- CPU_ReadMem(16 bytes @ 0xE0002FF0) -- CPU_ReadMem(16 bytes @ 0xE0002FE0)ROMTbl[1][2]: E0002000, CID: B105E00D, PID: 002BB003 FPB -- CPU_ReadMem(16 bytes @ 0xE0000FF0) -- CPU_ReadMem(16 bytes @ 0xE0000FE0)ROMTbl[1][3]: E0000000, CID: B105E00D, PID: 003BB001 ITM -- CPU_ReadMem(16 bytes @ 0xE00FF010) -- CPU_ReadMem(16 bytes @ 0xE0040FF0) -- CPU_ReadMem(16 bytes @ 0xE0040FE0)
ROMTbl[1][4]: E0040000, CID: B105900D, PID: 000BB9A1 TPIU -- CPU_ReadMem(16 bytes @ 0xE0041FF0) -- CPU_ReadMem(16 bytes @ 0xE0041FE0)ROMTbl[1][5]: E0041000, CID: B105900D, PID: 000BB925 ETM -- CPU_ReadMem(16 bytes @ 0xE0042FF0) -- CPU_ReadMem(16 bytes @ 0xE0042FE0)ROMTbl[1][6]: E0042000, CID: B105900D, PID: 003BB907 ETB  returns 0x00 (0156ms, 111579ms total)
T08BC 17164:154 JLINK_Halt()  returns 0x00 (0003ms, 111582ms total)
T08BC 17164:161 JLINK_JTAG_GetDeviceID(DeviceIndex = 0)  returns 0x00 (0000ms, 111582ms total)
T08BC 17164:161 JLINK_ReadMemU32(0x41002018, 0x0001 Items, ...) -- CPU_ReadMem(4 bytes @ 0x41002018) - Data: 00 00 06 60  returns 1 (0000ms, 111582ms total)
T4674 17164:168 JLINK_IsHalted()  returns TRUE (0000ms, 111583ms total)
T4674 17164:168 JLINK_GetMOEs(...) -- CPU_ReadMem(4 bytes @ 0xE000ED30)  returns 0x01 (0001ms, 111584ms total)
T4674 17164:169 JLINK_ReadReg(R15 (PC))  returns 0xFFFFFFFE (0000ms, 111584ms total)
T08BC 17164:248 JLINK_BeginDownload(Flags = 0x00) (0000ms, 111584ms total)
T08BC 17164:248 JLINK_WriteMem(0x00000000, 0x84AA0 Bytes, ...) - Data: D0 AC 02 20 D5 02 00 00 D1 02 00 00 D1 02 00 00 ... -- Read from flash cache (543392 bytes @ 0x00000000)  returns 0x84AA0 (0002ms, 111586ms total)
T08BC 17164:250 JLINK_WriteMem(0x00084AA0, 0x0238 Bytes, ...) - Data: E8 46 F8 7F 01 00 00 00 F4 46 F8 7F 50 FE FF 7F ... -- Read from flash cache (568 bytes @ 0x00084AA0)  returns 0x238 (0001ms, 111587ms total)
T08BC 17164:251 JLINK_WriteMem(0x00084CD8, 0x09D0 Bytes, ...) - Data: 00 00 00 00 98 27 08 00 F8 06 08 00 20 2C 08 00 ... -- Read from flash cache (2512 bytes @ 0x00084CD8)  returns 0x9D0 (0000ms, 111587ms total)
T08BC 17164:289 JLINK_EndDownload() -- CPU_ReadMem(4 bytes @ 0xE000ED90) -- CPU_ReadMem(4 bytes @ 0xE000ED94) -- -------------------------------------- -- Start of determining dirty areas in flash cache -- End of determining dirty areas -- Start of preparing flash programming -- Calculating RAM usage -- RAM usage = 6276 Bytes -- Preserving CPU registers -- Preparing memory -- Preparing target -- Downloading RAMCode -- Checking target RAM -- Preparing RAMCode -- End of preparing flash programming
 -- CPU speed could not be measured. -- Start of comparing flash -- CRC check was estimated as fastest method -- Comparing range 0x0000 - 0x1FFFF (16 Sectors, 128 KB), using multi-block CRC calculation -- CRC does not match for sectors 0-15 -- Comparing range 0x20000 - 0x3FFFF (16 Sectors, 128 KB), using multi-block CRC calculation -- CRC does not match for sectors 0-15 -- Comparing range 0x40000 - 0x5FFFF (16 Sectors, 128 KB), using multi-block CRC calculation -- CRC does not match for sectors 0-15
 -- Comparing range 0x60000 - 0x7FFFF (16 Sectors, 128 KB), using multi-block CRC calculation -- CRC does not match for sectors 0-15 -- Comparing range 0x80000 - 0x85FFF (3 Sectors, 24 KB), using multi-block CRC calculation -- CRC does not match for sectors 0-2 -- End of comparing flash -- Start of erasing sectors -- End of erasing sectors -- Start of flash programming -- Programming range 0x00000000 - 0x00007FFF (  4 Sectors, 32 KB) -- Programming range 0x00008000 - 0x0000FFFF (  4 Sectors, 32 KB)
 -- Programming range 0x00010000 - 0x00017FFF (  4 Sectors, 32 KB) -- Programming range 0x00018000 - 0x0001FFFF (  4 Sectors, 32 KB) -- Programming range 0x00020000 - 0x00027FFF (  4 Sectors, 32 KB) -- Programming range 0x00028000 - 0x0002FFFF (  4 Sectors, 32 KB) -- Programming range 0x00030000 - 0x00037FFF (  4 Sectors, 32 KB) -- Programming range 0x00038000 - 0x0003FFFF (  4 Sectors, 32 KB) -- Programming range 0x00040000 - 0x00047FFF (  4 Sectors, 32 KB)
 -- Programming range 0x00048000 - 0x0004FFFF (  4 Sectors, 32 KB) -- Programming range 0x00050000 - 0x00057FFF (  4 Sectors, 32 KB) -- Programming range 0x00058000 - 0x0005FFFF (  4 Sectors, 32 KB) -- Programming range 0x00060000 - 0x00067FFF (  4 Sectors, 32 KB) -- Programming range 0x00068000 - 0x0006FFFF (  4 Sectors, 32 KB) -- Programming range 0x00070000 - 0x00077FFF (  4 Sectors, 32 KB) -- Programming range 0x00078000 - 0x0007FFFF (  4 Sectors, 32 KB)
 -- Programming range 0x00080000 - 0x00085FFF (  3 Sectors, 24 KB) -- End of flash programming -- 0x0000 - 0x85FFF ( 67 Sectors, 536 KB) -- Start of verifying flash -- Use CRC or checksum calculation as verify method -- End of verifying flash -- Start of restoring -- Restoring RAMCode -- Restore target -- Restore memory -- Restoring CPU registers -- End of restoring -- Bank 0 @ 0x00000000: 1 range affected (548864 bytes)
 -- Total time needed: 3.507s (Prepare: 0.046s, Compare: 0.041s, Erase: 0.000s, Program: 3.395s, Verify: 0.020s, Restore: 0.004s)  returns 0x86000 (3513ms, 115100ms total)
T08BC 17167:802 JLINK_SetResetType(JLINKARM_CM3_RESET_TYPE_NORMAL)  returns JLINKARM_CM3_RESET_TYPE_NORMAL (0000ms, 115100ms total)
T08BC 17167:802 JLINK_Reset() -- CPU_WriteMem(4 bytes @ 0xE000EDF0) -- CPU_WriteMem(4 bytes @ 0xE000EDFC)Reset: Halt core after reset via DEMCR.VC_CORERESET. >0x35 TIF>Reset: Reset device via AIRCR.SYSRESETREQ. -- CPU_WriteMem(4 bytes @ 0xE000ED0C) >0x0D TIF> >0x28 TIF> -- CPU_ReadMem(4 bytes @ 0xE000EDF0) -- CPU_ReadMem(4 bytes @ 0xE000EDF0) -- CPU_WriteMem(4 bytes @ 0xE000EDF0) -- CPU_WriteMem(4 bytes @ 0xE000EDFC) -- CPU_ReadMem(4 bytes @ 0xE000EDF0) -- CPU_WriteMem(4 bytes @ 0xE0002000)
 -- CPU_ReadMem(4 bytes @ 0xE000EDFC) -- CPU_ReadMem(4 bytes @ 0xE0001000) (0070ms, 115170ms total)
T4674 17167:992 JLINK_IsHalted()  returns TRUE (0000ms, 115170ms total)
T0EE8 17168:082 JLINK_Halt()  returns 0x00 (0000ms, 115170ms total)
T0EE8 17168:083 JLINK_ReadReg(R15 (PC))  returns 0x000002D4 (0000ms, 115170ms total)
T0EE8 17168:083 JLINK_ReadReg(R13 (SP))  returns 0x2002ACD0 (0000ms, 115170ms total)
T0EE8 17168:089 JLINK_ReadMemHW(0x000002D4, 0x0004 Bytes, ...) -- CPU_ReadMem(4 bytes @ 0x000002D4) - Data: 08 B5 1C 4B  returns 0x00 (0001ms, 115171ms total)
T0EE8 17168:090 JLINK_ReadReg(R0)  returns 0x40002000 (0000ms, 115171ms total)
T0EE8 17168:090 JLINK_ReadReg(R1)  returns 0x00000000 (0000ms, 115171ms total)
T0EE8 17168:090 JLINK_ReadReg(R2)  returns 0x00000000 (0000ms, 115171ms total)
T0EE8 17168:090 JLINK_ReadReg(R3)  returns 0xCC8758BB (0000ms, 115171ms total)
T0EE8 17168:090 JLINK_ReadReg(R4)  returns 0x200007F4 (0000ms, 115171ms total)
T0EE8 17168:090 JLINK_ReadReg(R5)  returns 0x20000814 (0000ms, 115171ms total)
T0EE8 17168:090 JLINK_ReadReg(R6)  returns 0x20000814 (0000ms, 115171ms total)
T0EE8 17168:090 JLINK_ReadReg(R7)  returns 0x2002A8A7 (0000ms, 115171ms total)
T0EE8 17168:090 JLINK_ReadReg(R8)  returns 0x00000400 (0000ms, 115171ms total)
T0EE8 17168:090 JLINK_ReadReg(R9)  returns 0x00000B0B (0000ms, 115171ms total)
T0EE8 17168:090 JLINK_ReadReg(R10)  returns 0x00000001 (0000ms, 115171ms total)
T0EE8 17168:090 JLINK_ReadReg(R11)  returns 0x00000008 (0000ms, 115171ms total)
T0EE8 17168:090 JLINK_ReadReg(R12)  returns 0x20000768 (0000ms, 115171ms total)
T0EE8 17168:090 JLINK_ReadReg(R13 (SP))  returns 0x2002ACD0 (0000ms, 115171ms total)
T0EE8 17168:090 JLINK_ReadReg(R14)  returns 0xFFFFFFFF (0000ms, 115171ms total)
T0EE8 17168:090 JLINK_ReadReg(R15 (PC))  returns 0x000002D4 (0000ms, 115171ms total)
T0EE8 17168:090 JLINK_ReadReg(XPSR)  returns 0x01000000 (0001ms, 115172ms total)
T0EE8 17168:091 JLINK_ReadReg(MSP)  returns 0x2002ACD0 (0000ms, 115172ms total)
T0EE8 17168:091 JLINK_ReadReg(PSP)  returns 0xFFB7FA3C (0000ms, 115172ms total)
T0EE8 17168:091 JLINK_ReadReg(PRIMASK)  returns 0x00000000 (0000ms, 115172ms total)
T0EE8 17168:091 JLINK_ReadReg(BASEPRI)  returns 0x00000000 (0000ms, 115172ms total)
T0EE8 17168:091 JLINK_ReadReg(FAULTMASK)  returns 0x00000000 (0000ms, 115172ms total)
T0EE8 17168:091 JLINK_ReadReg(CONTROL)  returns 0x00000000 (0000ms, 115172ms total)
T0EE8 17168:091 JLINK_ReadReg(FPSCR)  returns 0x00000000 (0005ms, 115177ms total)
T0EE8 17168:096 JLINK_ReadReg(FPS0)  returns 0x2981091B (0000ms, 115177ms total)
T0EE8 17168:096 JLINK_ReadReg(FPS1)  returns 0x00001289 (0000ms, 115177ms total)
T0EE8 17168:096 JLINK_ReadReg(FPS2)  returns 0x28041809 (0000ms, 115177ms total)
T0EE8 17168:096 JLINK_ReadReg(FPS3)  returns 0x0404C681 (0000ms, 115177ms total)
T0EE8 17168:096 JLINK_ReadReg(FPS4)  returns 0x042C0406 (0000ms, 115177ms total)
T0EE8 17168:096 JLINK_ReadReg(FPS5)  returns 0x280A9D5A (0000ms, 115177ms total)
T0EE8 17168:096 JLINK_ReadReg(FPS6)  returns 0x08206EA1 (0000ms, 115177ms total)
T0EE8 17168:096 JLINK_ReadReg(FPS7)  returns 0xD902C500 (0000ms, 115177ms total)
T0EE8 17168:096 JLINK_ReadReg(FPS8)  returns 0x60B11180 (0000ms, 115177ms total)
T0EE8 17168:096 JLINK_ReadReg(FPS9)  returns 0xC0D08050 (0000ms, 115177ms total)
T0EE8 17168:096 JLINK_ReadReg(FPS10)  returns 0x42A0ADC9 (0000ms, 115177ms total)
T0EE8 17168:096 JLINK_ReadReg(FPS11)  returns 0x2C460AA8 (0000ms, 115177ms total)
T0EE8 17168:096 JLINK_ReadReg(FPS12)  returns 0x4D2AC98B (0000ms, 115177ms total)
T0EE8 17168:096 JLINK_ReadReg(FPS13)  returns 0x95284A84 (0000ms, 115177ms total)
T0EE8 17168:096 JLINK_ReadReg(FPS14)  returns 0x1C4E1589 (0000ms, 115177ms total)
T0EE8 17168:096 JLINK_ReadReg(FPS15)  returns 0xC120F030 (0000ms, 115177ms total)
T0EE8 17168:096 JLINK_ReadReg(FPS16)  returns 0x19004907 (0000ms, 115177ms total)
T0EE8 17168:096 JLINK_ReadReg(FPS17)  returns 0x52600040 (0000ms, 115177ms total)
T0EE8 17168:096 JLINK_ReadReg(FPS18)  returns 0x00416401 (0001ms, 115178ms total)
T0EE8 17168:097 JLINK_ReadReg(FPS19)  returns 0x814808D1 (0000ms, 115178ms total)
T0EE8 17168:097 JLINK_ReadReg(FPS20)  returns 0x122A02C2 (0000ms, 115178ms total)
T0EE8 17168:097 JLINK_ReadReg(FPS21)  returns 0x02CCA23C (0000ms, 115178ms total)
T0EE8 17168:097 JLINK_ReadReg(FPS22)  returns 0x2112000A (0000ms, 115178ms total)
T0EE8 17168:097 JLINK_ReadReg(FPS23)  returns 0x01680A40 (0000ms, 115178ms total)
T0EE8 17168:097 JLINK_ReadReg(FPS24)  returns 0x10146121 (0000ms, 115178ms total)
T0EE8 17168:097 JLINK_ReadReg(FPS25)  returns 0x300A0001 (0000ms, 115178ms total)
T0EE8 17168:097 JLINK_ReadReg(FPS26)  returns 0xA080088E (0000ms, 115178ms total)
T0EE8 17168:097 JLINK_ReadReg(FPS27)  returns 0xC4440D48 (0000ms, 115178ms total)
T0EE8 17168:097 JLINK_ReadReg(FPS28)  returns 0x01800683 (0000ms, 115178ms total)
T0EE8 17168:097 JLINK_ReadReg(FPS29)  returns 0x8A790C40 (0000ms, 115178ms total)
T0EE8 17168:097 JLINK_ReadReg(FPS30)  returns 0x32D0641A (0000ms, 115178ms total)
T0EE8 17168:097 JLINK_ReadReg(FPS31)  returns 0x9C3A0504 (0000ms, 115178ms total)
T0EE8 17168:097 JLINK_ReadMemHW(0x000002D4, 0x0002 Bytes, ...) -- CPU_ReadMem(2 bytes @ 0x000002D4) - Data: 08 B5  returns 0x00 (0001ms, 115179ms total)
T4674 17168:195 JLINK_IsHalted()  returns TRUE (0000ms, 115179ms total)
T0EE8 17168:213 JLINK_ReadMemHW(0x0000A390, 0x0002 Bytes, ...) -- CPU_ReadMem(2 bytes @ 0x0000A390) - Data: 08 B5  returns 0x00 (0001ms, 115180ms total)
T0EE8 17168:214 JLINK_ReadMemHW(0x00012B1C, 0x0002 Bytes, ...) -- CPU_ReadMem(2 bytes @ 0x00012B1C) - Data: 70 47  returns 0x00 (0000ms, 115180ms total)
T4674 17168:399 JLINK_IsHalted()  returns TRUE (0000ms, 115180ms total)
T4674 17168:599 JLINK_IsHalted()  returns TRUE (0000ms, 115180ms total)
T4674 17168:799 JLINK_IsHalted()  returns TRUE (0000ms, 115180ms total)
T4674 17169:001 JLINK_IsHalted()  returns TRUE (0000ms, 115180ms total)
T4674 17169:202 JLINK_IsHalted()  returns TRUE (0000ms, 115180ms total)
T4674 17169:403 JLINK_IsHalted()  returns TRUE (0000ms, 115180ms total)
T4674 17169:604 JLINK_IsHalted()  returns TRUE (0000ms, 115180ms total)
T4674 17169:805 JLINK_IsHalted()  returns TRUE (0000ms, 115180ms total)
T0EE8 17169:959 JLINK_ReadReg(R0)  returns 0x40002000 (0000ms, 115180ms total)
T0EE8 17169:959 JLINK_ReadReg(R1)  returns 0x00000000 (0000ms, 115180ms total)
T0EE8 17169:959 JLINK_ReadReg(R2)  returns 0x00000000 (0000ms, 115180ms total)
T0EE8 17169:959 JLINK_ReadReg(R3)  returns 0xCC8758BB (0001ms, 115181ms total)
T0EE8 17169:960 JLINK_ReadReg(R4)  returns 0x200007F4 (0000ms, 115181ms total)
T0EE8 17169:960 JLINK_ReadReg(R5)  returns 0x20000814 (0000ms, 115181ms total)
T0EE8 17169:960 JLINK_ReadReg(R6)  returns 0x20000814 (0000ms, 115181ms total)
T0EE8 17169:960 JLINK_ReadReg(R7)  returns 0x2002A8A7 (0000ms, 115181ms total)
T0EE8 17169:960 JLINK_ReadReg(R8)  returns 0x00000400 (0000ms, 115181ms total)
T0EE8 17169:960 JLINK_ReadReg(R9)  returns 0x00000B0B (0000ms, 115181ms total)
T0EE8 17169:960 JLINK_ReadReg(R10)  returns 0x00000001 (0000ms, 115181ms total)
T0EE8 17169:960 JLINK_ReadReg(R11)  returns 0x00000008 (0000ms, 115181ms total)
T0EE8 17169:960 JLINK_ReadReg(R12)  returns 0x20000768 (0000ms, 115181ms total)
T0EE8 17169:960 JLINK_ReadReg(R13 (SP))  returns 0x2002ACD0 (0000ms, 115181ms total)
T0EE8 17169:960 JLINK_ReadReg(R14)  returns 0xFFFFFFFF (0000ms, 115181ms total)
T0EE8 17169:960 JLINK_ReadReg(R15 (PC))  returns 0x000002D4 (0000ms, 115181ms total)
T0EE8 17169:960 JLINK_ReadReg(XPSR)  returns 0x01000000 (0000ms, 115181ms total)
T0EE8 17169:960 JLINK_ReadReg(MSP)  returns 0x2002ACD0 (0000ms, 115181ms total)
T0EE8 17169:960 JLINK_ReadReg(PSP)  returns 0xFFB7FA3C (0000ms, 115181ms total)
T0EE8 17169:960 JLINK_ReadReg(PRIMASK)  returns 0x00000000 (0000ms, 115181ms total)
T0EE8 17169:960 JLINK_ReadReg(BASEPRI)  returns 0x00000000 (0000ms, 115181ms total)
T0EE8 17169:960 JLINK_ReadReg(FAULTMASK)  returns 0x00000000 (0000ms, 115181ms total)
T0EE8 17169:960 JLINK_ReadReg(CONTROL)  returns 0x00000000 (0000ms, 115181ms total)
T0EE8 17169:960 JLINK_ReadReg(FPSCR)  returns 0x00000000 (0000ms, 115181ms total)
T0EE8 17169:960 JLINK_ReadReg(FPS0)  returns 0x2981091B (0000ms, 115181ms total)
T0EE8 17169:960 JLINK_ReadReg(FPS1)  returns 0x00001289 (0000ms, 115181ms total)
T0EE8 17169:960 JLINK_ReadReg(FPS2)  returns 0x28041809 (0000ms, 115181ms total)
T0EE8 17169:960 JLINK_ReadReg(FPS3)  returns 0x0404C681 (0000ms, 115181ms total)
T0EE8 17169:960 JLINK_ReadReg(FPS4)  returns 0x042C0406 (0000ms, 115181ms total)
T0EE8 17169:960 JLINK_ReadReg(FPS5)  returns 0x280A9D5A (0000ms, 115181ms total)
T0EE8 17169:961 JLINK_ReadReg(FPS6)  returns 0x08206EA1 (0000ms, 115181ms total)
T0EE8 17169:961 JLINK_ReadReg(FPS7)  returns 0xD902C500 (0000ms, 115181ms total)
T0EE8 17169:961 JLINK_ReadReg(FPS8)  returns 0x60B11180 (0000ms, 115181ms total)
T0EE8 17169:961 JLINK_ReadReg(FPS9)  returns 0xC0D08050 (0000ms, 115181ms total)
T0EE8 17169:961 JLINK_ReadReg(FPS10)  returns 0x42A0ADC9 (0000ms, 115181ms total)
T0EE8 17169:961 JLINK_ReadReg(FPS11)  returns 0x2C460AA8 (0000ms, 115181ms total)
T0EE8 17169:961 JLINK_ReadReg(FPS12)  returns 0x4D2AC98B (0000ms, 115181ms total)
T0EE8 17169:961 JLINK_ReadReg(FPS13)  returns 0x95284A84 (0000ms, 115181ms total)
T0EE8 17169:961 JLINK_ReadReg(FPS14)  returns 0x1C4E1589 (0000ms, 115181ms total)
T0EE8 17169:961 JLINK_ReadReg(FPS15)  returns 0xC120F030 (0000ms, 115181ms total)
T0EE8 17169:961 JLINK_ReadReg(FPS16)  returns 0x19004907 (0000ms, 115181ms total)
T0EE8 17169:961 JLINK_ReadReg(FPS17)  returns 0x52600040 (0000ms, 115181ms total)
T0EE8 17169:961 JLINK_ReadReg(FPS18)  returns 0x00416401 (0000ms, 115181ms total)
T0EE8 17169:961 JLINK_ReadReg(FPS19)  returns 0x814808D1 (0000ms, 115181ms total)
T0EE8 17169:961 JLINK_ReadReg(FPS20)  returns 0x122A02C2 (0000ms, 115181ms total)
T0EE8 17169:961 JLINK_ReadReg(FPS21)  returns 0x02CCA23C (0000ms, 115181ms total)
T0EE8 17169:961 JLINK_ReadReg(FPS22)  returns 0x2112000A (0000ms, 115181ms total)
T0EE8 17169:961 JLINK_ReadReg(FPS23)  returns 0x01680A40 (0000ms, 115181ms total)
T0EE8 17169:961 JLINK_ReadReg(FPS24)  returns 0x10146121 (0000ms, 115181ms total)
T0EE8 17169:961 JLINK_ReadReg(FPS25)  returns 0x300A0001 (0000ms, 115181ms total)
T0EE8 17169:961 JLINK_ReadReg(FPS26)  returns 0xA080088E (0000ms, 115181ms total)
T0EE8 17169:961 JLINK_ReadReg(FPS27)  returns 0xC4440D48 (0000ms, 115181ms total)
T0EE8 17169:961 JLINK_ReadReg(FPS28)  returns 0x01800683 (0000ms, 115181ms total)
T0EE8 17169:961 JLINK_ReadReg(FPS29)  returns 0x8A790C40 (0000ms, 115181ms total)
T0EE8 17169:961 JLINK_ReadReg(FPS30)  returns 0x32D0641A (0000ms, 115181ms total)
T0EE8 17169:961 JLINK_ReadReg(FPS31)  returns 0x9C3A0504 (0000ms, 115181ms total)
T0EE8 17169:981 JLINK_ReadMemHW(0x000002D4, 0x0004 Bytes, ...) -- CPU_ReadMem(4 bytes @ 0x000002D4) - Data: 08 B5 1C 4B  returns 0x00 (0001ms, 115182ms total)
T4674 17170:006 JLINK_IsHalted()  returns TRUE (0000ms, 115182ms total)
T0EE8 17170:069 JLINK_SetResetType(JLINKARM_CM3_RESET_TYPE_NORMAL)  returns JLINKARM_CM3_RESET_TYPE_NORMAL (0000ms, 115182ms total)
T0EE8 17170:069 JLINK_Reset() -- CPU_WriteMem(4 bytes @ 0xE000EDF0) -- CPU_WriteMem(4 bytes @ 0xE000EDFC)Reset: Halt core after reset via DEMCR.VC_CORERESET. >0x35 TIF>Reset: Reset device via AIRCR.SYSRESETREQ. -- CPU_WriteMem(4 bytes @ 0xE000ED0C) >0x0D TIF> >0x28 TIF> -- CPU_ReadMem(4 bytes @ 0xE000EDF0) -- CPU_ReadMem(4 bytes @ 0xE000EDF0) -- CPU_WriteMem(4 bytes @ 0xE000EDF0) -- CPU_WriteMem(4 bytes @ 0xE000EDFC) -- CPU_ReadMem(4 bytes @ 0xE000EDF0) -- CPU_WriteMem(4 bytes @ 0xE0002000)
 -- CPU_ReadMem(4 bytes @ 0xE000EDFC) -- CPU_ReadMem(4 bytes @ 0xE0001000) (0072ms, 115254ms total)
T4674 17170:142 JLINK_IsHalted()  returns TRUE (0000ms, 115254ms total)
T4674 17170:142 JLINK_GetMOEs(...) -- CPU_ReadMem(4 bytes @ 0xE000ED30)  returns 0x01 (0000ms, 115254ms total)
T4674 17170:142 JLINK_ReadReg(R15 (PC))  returns 0x000002D4 (0000ms, 115254ms total)
T0EE8 17170:152 JLINK_ReadReg(R15 (PC))  returns 0x000002D4 (0000ms, 115254ms total)
T0EE8 17170:152 JLINK_ReadReg(R13 (SP))  returns 0x2002ACD0 (0000ms, 115254ms total)
T0EE8 17170:152 JLINK_ReadMemHW(0x000002D4, 0x0004 Bytes, ...) -- CPU_ReadMem(4 bytes @ 0x000002D4) - Data: 08 B5 1C 4B  returns 0x00 (0000ms, 115254ms total)
T0EE8 17170:177 JLINK_ReadReg(R0)  returns 0x40002000 (0000ms, 115254ms total)
T0EE8 17170:177 JLINK_ReadReg(R1)  returns 0x00000000 (0000ms, 115254ms total)
T0EE8 17170:177 JLINK_ReadReg(R2)  returns 0x00000000 (0000ms, 115254ms total)
T0EE8 17170:177 JLINK_ReadReg(R3)  returns 0xCC8758BB (0000ms, 115254ms total)
T0EE8 17170:177 JLINK_ReadReg(R4)  returns 0x200007F4 (0000ms, 115254ms total)
T0EE8 17170:177 JLINK_ReadReg(R5)  returns 0x20000814 (0000ms, 115254ms total)
T0EE8 17170:177 JLINK_ReadReg(R6)  returns 0x20000814 (0000ms, 115254ms total)
T0EE8 17170:177 JLINK_ReadReg(R7)  returns 0x2002A8A7 (0000ms, 115254ms total)
T0EE8 17170:177 JLINK_ReadReg(R8)  returns 0x00000400 (0000ms, 115254ms total)
T0EE8 17170:177 JLINK_ReadReg(R9)  returns 0x00000B0B (0000ms, 115254ms total)
T0EE8 17170:177 JLINK_ReadReg(R10)  returns 0x00000001 (0000ms, 115254ms total)
T0EE8 17170:177 JLINK_ReadReg(R11)  returns 0x00000008 (0001ms, 115255ms total)
T0EE8 17170:178 JLINK_ReadReg(R12)  returns 0x20000768 (0000ms, 115255ms total)
T0EE8 17170:178 JLINK_ReadReg(R13 (SP))  returns 0x2002ACD0 (0000ms, 115255ms total)
T0EE8 17170:178 JLINK_ReadReg(R14)  returns 0xFFFFFFFF (0000ms, 115255ms total)
T0EE8 17170:178 JLINK_ReadReg(R15 (PC))  returns 0x000002D4 (0000ms, 115255ms total)
T0EE8 17170:178 JLINK_ReadReg(XPSR)  returns 0x01000000 (0000ms, 115255ms total)
T0EE8 17170:178 JLINK_ReadReg(MSP)  returns 0x2002ACD0 (0000ms, 115255ms total)
T0EE8 17170:178 JLINK_ReadReg(PSP)  returns 0xFFB7FA3C (0000ms, 115255ms total)
T0EE8 17170:178 JLINK_ReadReg(PRIMASK)  returns 0x00000000 (0000ms, 115255ms total)
T0EE8 17170:178 JLINK_ReadReg(BASEPRI)  returns 0x00000000 (0000ms, 115255ms total)
T0EE8 17170:178 JLINK_ReadReg(FAULTMASK)  returns 0x00000000 (0000ms, 115255ms total)
T0EE8 17170:178 JLINK_ReadReg(CONTROL)  returns 0x00000000 (0000ms, 115255ms total)
T0EE8 17170:178 JLINK_ReadReg(FPSCR)  returns 0x00000000 (0005ms, 115260ms total)
T0EE8 17170:183 JLINK_ReadReg(FPS0)  returns 0x2981091B (0000ms, 115260ms total)
T0EE8 17170:183 JLINK_ReadReg(FPS1)  returns 0x00001289 (0000ms, 115260ms total)
T0EE8 17170:183 JLINK_ReadReg(FPS2)  returns 0x28041809 (0000ms, 115260ms total)
T0EE8 17170:183 JLINK_ReadReg(FPS3)  returns 0x0404C681 (0000ms, 115260ms total)
T0EE8 17170:183 JLINK_ReadReg(FPS4)  returns 0x042C0406 (0001ms, 115261ms total)
T0EE8 17170:184 JLINK_ReadReg(FPS5)  returns 0x280A9D5A (0000ms, 115261ms total)
T0EE8 17170:184 JLINK_ReadReg(FPS6)  returns 0x08206EA1 (0000ms, 115261ms total)
T0EE8 17170:184 JLINK_ReadReg(FPS7)  returns 0xD902C500 (0000ms, 115261ms total)
T0EE8 17170:184 JLINK_ReadReg(FPS8)  returns 0x60B11180 (0000ms, 115261ms total)
T0EE8 17170:184 JLINK_ReadReg(FPS9)  returns 0xC0D08050 (0000ms, 115261ms total)
T0EE8 17170:184 JLINK_ReadReg(FPS10)  returns 0x42A0ADC9 (0000ms, 115261ms total)
T0EE8 17170:184 JLINK_ReadReg(FPS11)  returns 0x2C460AA8 (0000ms, 115261ms total)
T0EE8 17170:184 JLINK_ReadReg(FPS12)  returns 0x4D2AC98B (0000ms, 115261ms total)
T0EE8 17170:184 JLINK_ReadReg(FPS13)  returns 0x95284A84 (0000ms, 115261ms total)
T0EE8 17170:184 JLINK_ReadReg(FPS14)  returns 0x1C4E1589 (0000ms, 115261ms total)
T0EE8 17170:184 JLINK_ReadReg(FPS15)  returns 0xC120F030 (0000ms, 115261ms total)
T0EE8 17170:184 JLINK_ReadReg(FPS16)  returns 0x19004907 (0000ms, 115261ms total)
T0EE8 17170:184 JLINK_ReadReg(FPS17)  returns 0x52600040 (0000ms, 115261ms total)
T0EE8 17170:184 JLINK_ReadReg(FPS18)  returns 0x00416401 (0000ms, 115261ms total)
T0EE8 17170:184 JLINK_ReadReg(FPS19)  returns 0x814808D1 (0000ms, 115261ms total)
T0EE8 17170:184 JLINK_ReadReg(FPS20)  returns 0x122A02C2 (0000ms, 115261ms total)
T0EE8 17170:184 JLINK_ReadReg(FPS21)  returns 0x02CCA23C (0000ms, 115261ms total)
T0EE8 17170:184 JLINK_ReadReg(FPS22)  returns 0x2112000A (0000ms, 115261ms total)
T0EE8 17170:184 JLINK_ReadReg(FPS23)  returns 0x01680A40 (0000ms, 115261ms total)
T0EE8 17170:184 JLINK_ReadReg(FPS24)  returns 0x10146121 (0000ms, 115261ms total)
T0EE8 17170:184 JLINK_ReadReg(FPS25)  returns 0x300A0001 (0000ms, 115261ms total)
T0EE8 17170:184 JLINK_ReadReg(FPS26)  returns 0xA080088E (0000ms, 115261ms total)
T0EE8 17170:184 JLINK_ReadReg(FPS27)  returns 0xC4440D48 (0000ms, 115261ms total)
T0EE8 17170:184 JLINK_ReadReg(FPS28)  returns 0x01800683 (0000ms, 115261ms total)
T0EE8 17170:184 JLINK_ReadReg(FPS29)  returns 0x8A790C40 (0000ms, 115261ms total)
T0EE8 17170:184 JLINK_ReadReg(FPS30)  returns 0x32D0641A (0000ms, 115261ms total)
T0EE8 17170:184 JLINK_ReadReg(FPS31)  returns 0x9C3A0504 (0000ms, 115261ms total)
T0EE8 17170:185 JLINK_ReadMemHW(0x00000000, 0x0002 Bytes, ...) -- CPU_ReadMem(2 bytes @ 0x00000000) - Data: D0 AC  returns 0x00 (0001ms, 115262ms total)
T0EE8 17170:224 JLINK_ReadMemHW(0x00000C60, 0x0001 Bytes, ...) -- CPU_ReadMem(1 bytes @ 0x00000C60) - Data: 2D  returns 0x00 (0001ms, 115263ms total)
T0EE8 17170:287 JLINK_ReadReg(R15 (PC))  returns 0x000002D4 (0000ms, 115263ms total)
T0EE8 17170:287 JLINK_GetNumBPUnits(Type = 0xFFFFFF02)  returns 0x06 (0000ms, 115263ms total)
T0EE8 17170:287 JLINK_SetBPEx(Addr = 0x00000C60, Type = 0xFFFFFFF2)  returns 0x00000001 (0000ms, 115263ms total)
T0EE8 17170:287 JLINK_GetBPInfo(BPHandle = 1)  returns 0x00 (0000ms, 115263ms total)
T0EE8 17170:287 JLINK_Go() -- CPU_WriteMem(4 bytes @ 0xE0002000) -- CPU_ReadMem(4 bytes @ 0xE0001000) -- CPU_WriteMem(4 bytes @ 0xE000ED30) -- CPU_WriteMem(4 bytes @ 0xE0002008) -- CPU_WriteMem(4 bytes @ 0xE000200C) -- CPU_WriteMem(4 bytes @ 0xE0002010) -- CPU_WriteMem(4 bytes @ 0xE0002014) -- CPU_WriteMem(4 bytes @ 0xE0002018) -- CPU_WriteMem(4 bytes @ 0xE000201C) -- CPU_WriteMem(4 bytes @ 0xE0001004) (0006ms, 115269ms total)
T4674 17170:293 JLINK_IsHalted()  returns FALSE (0000ms, 115269ms total)
T4674 17170:319 JLINK_IsHalted()  returns TRUE (0003ms, 115272ms total)
T4674 17170:322 JLINK_GetMOEs(...) -- CPU_ReadMem(4 bytes @ 0xE000ED30)  returns 0x01 (0002ms, 115271ms total)
T4674 17170:324 JLINK_ReadReg(R15 (PC))  returns 0x00000C60 (0000ms, 115271ms total)
T0EE8 17170:333 JLINK_ReadReg(R15 (PC))  returns 0x00000C60 (0000ms, 115271ms total)
T0EE8 17170:333 JLINK_ReadReg(R13 (SP))  returns 0x2002ACC8 (0000ms, 115271ms total)
T0EE8 17170:334 JLINK_ReadMemHW(0x00000C60, 0x0004 Bytes, ...) -- CPU_ReadMem(4 bytes @ 0x00000C60) - Data: 2D E9 F0 4F  returns 0x00 (0001ms, 115272ms total)
T0EE8 17170:350 JLINK_WriteU32(0xE000EDFC, 0x01000000) -- CPU_WriteMem(4 bytes @ 0xE000EDFC)  returns 0 (0000ms, 115272ms total)
T0EE8 17170:350 JLINK_ReadMem (0xE0001000, 0x0004 Bytes, ...) -- CPU_ReadMem(4 bytes @ 0xE0001000) - Data: 01 00 00 40  returns 0x00 (0001ms, 115273ms total)
T0EE8 17170:351 JLINK_WriteU32(0xE0001000, 0x40000001)  returns 0 (0000ms, 115273ms total)
T0EE8 17170:351 JLINK_WriteU32(0xE0001028, 0x00000100)  returns 0 (0000ms, 115273ms total)
T0EE8 17170:351 JLINK_ReadMem (0xE0001028, 0x0004 Bytes, ...) -- CPU_WriteMem(4 bytes @ 0xE0001028) -- CPU_ReadMem(4 bytes @ 0xE0001028) - Data: 00 00 00 00  returns 0x00 (0001ms, 115274ms total)
T0EE8 17170:352 JLINK_WriteU32(0xE0001024, 0x0000001F)  returns 0 (0000ms, 115274ms total)
T0EE8 17170:352 JLINK_ReadMem (0xE0001024, 0x0004 Bytes, ...) -- CPU_WriteMem(4 bytes @ 0xE0001024) -- CPU_ReadMem(4 bytes @ 0xE0001024) - Data: 0F 00 00 00  returns 0x00 (0002ms, 115276ms total)
T0EE8 17170:354 JLINK_WriteU32(0xE0001038, 0x00000100)  returns 0 (0000ms, 115276ms total)
T0EE8 17170:354 JLINK_ReadMem (0xE0001038, 0x0004 Bytes, ...) -- CPU_WriteMem(4 bytes @ 0xE0001038) -- CPU_ReadMem(4 bytes @ 0xE0001038) - Data: 00 03 00 00  returns 0x00 (0001ms, 115277ms total)
T0EE8 17170:355 JLINK_WriteU32(0xE0001034, 0x0000001F)  returns 0 (0000ms, 115277ms total)
T0EE8 17170:355 JLINK_ReadMem (0xE0001034, 0x0004 Bytes, ...) -- CPU_WriteMem(4 bytes @ 0xE0001034) -- CPU_ReadMem(4 bytes @ 0xE0001034) - Data: 0F 00 00 00  returns 0x00 (0001ms, 115278ms total)
T0EE8 17170:356 JLINK_WriteU32(0xE0001048, 0x00000100)  returns 0 (0001ms, 115279ms total)
T0EE8 17170:357 JLINK_ReadMem (0xE0001048, 0x0004 Bytes, ...) -- CPU_WriteMem(4 bytes @ 0xE0001048) -- CPU_ReadMem(4 bytes @ 0xE0001048) - Data: 00 00 00 00  returns 0x00 (0001ms, 115280ms total)
T0EE8 17170:358 JLINK_WriteU32(0xE0001044, 0x0000001F)  returns 0 (0000ms, 115280ms total)
T0EE8 17170:358 JLINK_ReadMem (0xE0001044, 0x0004 Bytes, ...) -- CPU_WriteMem(4 bytes @ 0xE0001044) -- CPU_ReadMem(4 bytes @ 0xE0001044) - Data: 0F 00 00 00  returns 0x00 (0001ms, 115281ms total)
T0EE8 17170:360 JLINK_WriteU32(0xE0001058, 0x00000100)  returns 0 (0000ms, 115281ms total)
T0EE8 17170:360 JLINK_ReadMem (0xE0001058, 0x0004 Bytes, ...) -- CPU_WriteMem(4 bytes @ 0xE0001058) -- CPU_ReadMem(4 bytes @ 0xE0001058) - Data: 00 00 00 00  returns 0x00 (0001ms, 115282ms total)
T0EE8 17170:361 JLINK_WriteU32(0xE0001054, 0x0000001F)  returns 0 (0000ms, 115282ms total)
T0EE8 17170:361 JLINK_ReadMem (0xE0001054, 0x0004 Bytes, ...) -- CPU_WriteMem(4 bytes @ 0xE0001054) -- CPU_ReadMem(4 bytes @ 0xE0001054) - Data: 0F 00 00 00  returns 0x00 (0002ms, 115284ms total)
T0EE8 17170:363 JLINK_WriteU32(0xE0001020, 0x00000000)  returns 0 (0000ms, 115284ms total)
T0EE8 17170:363 JLINK_WriteU32(0xE0001024, 0x00000000)  returns 0 (0000ms, 115284ms total)
T0EE8 17170:363 JLINK_WriteU32(0xE0001028, 0x00000000)  returns 0 (0000ms, 115284ms total)
T0EE8 17170:363 JLINK_WriteU32(0xE0001030, 0x00000000)  returns 0 (0000ms, 115284ms total)
T0EE8 17170:363 JLINK_WriteU32(0xE0001034, 0x00000000)  returns 0 (0000ms, 115284ms total)
T0EE8 17170:364 JLINK_WriteU32(0xE0001038, 0x00000000)  returns 0 (0000ms, 115284ms total)
T0EE8 17170:364 JLINK_WriteU32(0xE0001040, 0x00000000)  returns 0 (0000ms, 115284ms total)
T0EE8 17170:364 JLINK_WriteU32(0xE0001044, 0x00000000)  returns 0 (0000ms, 115284ms total)
T0EE8 17170:366 JLINK_WriteU32(0xE0001048, 0x00000000)  returns 0 (0000ms, 115285ms total)
T0EE8 17170:366 JLINK_WriteU32(0xE0001050, 0x00000000)  returns 0 (0000ms, 115285ms total)
T0EE8 17170:367 JLINK_WriteU32(0xE0001054, 0x00000000)  returns 0 (0000ms, 115286ms total)
T0EE8 17170:367 JLINK_WriteU32(0xE0001058, 0x00000000)  returns 0 (0000ms, 115286ms total)
T0EE8 17170:367 JLINK_GetBPInfo(BPHandle = 1)  returns 0x00 (0000ms, 115286ms total)
T0EE8 17170:367 JLINK_ClrBPEx(BPHandle = 0x00000001)  returns 0x00 (0000ms, 115286ms total)
T0EE8 17170:367 JLINK_ReadReg(R15 (PC))  returns 0x00000C60 (0000ms, 115286ms total)
T0EE8 17170:367 JLINK_Go() -- CPU_WriteMem(4 bytes @ 0xE0001000) -- CPU_ReadMem(4 bytes @ 0xE0001000) -- CPU_WriteMem(4 bytes @ 0xE000ED30) -- CPU_WriteMem(4 bytes @ 0xE0001020) -- CPU_WriteMem(4 bytes @ 0xE0001030) -- CPU_WriteMem(4 bytes @ 0xE0001040) -- CPU_WriteMem(4 bytes @ 0xE0001050) -- CPU_WriteMem(4 bytes @ 0xE0001024) -- CPU_WriteMem(4 bytes @ 0xE0001034) -- CPU_WriteMem(4 bytes @ 0xE0001044) -- CPU_WriteMem(4 bytes @ 0xE0001054) -- CPU_WriteMem(4 bytes @ 0xE0001028)
 -- CPU_WriteMem(4 bytes @ 0xE0001038) -- CPU_WriteMem(4 bytes @ 0xE0001048) -- CPU_WriteMem(4 bytes @ 0xE0001058) -- CPU_WriteMem(4 bytes @ 0xE0002008) (0006ms, 115292ms total)
T4674 17170:373 JLINK_IsHalted()  returns FALSE (0001ms, 115293ms total)
T4674 17170:415 JLINK_IsHalted()  returns FALSE (0000ms, 115292ms total)
T4674 17170:575 JLINK_IsHalted()  returns FALSE (0001ms, 115293ms total)
T4674 17170:779 JLINK_IsHalted()  returns FALSE (0001ms, 115293ms total)
T4674 17170:983 JLINK_IsHalted()  returns FALSE (0000ms, 115292ms total)
T4674 17171:187 JLINK_IsHalted()  returns FALSE (0000ms, 115292ms total)
T4674 17171:389 JLINK_IsHalted()  returns FALSE (0001ms, 115293ms total)
T4674 17171:590 JLINK_IsHalted()  returns FALSE (0002ms, 115294ms total)
T4674 17171:796 JLINK_IsHalted()  returns FALSE (0000ms, 115292ms total)
T4674 17171:998 JLINK_IsHalted()  returns FALSE (0001ms, 115293ms total)
T4674 17172:199 JLINK_IsHalted()  returns FALSE (0000ms, 115292ms total)
T4674 17172:399 JLINK_IsHalted()  returns FALSE (0000ms, 115292ms total)
T4674 17172:599 JLINK_IsHalted()  returns FALSE (0001ms, 115293ms total)
T4674 17172:800 JLINK_IsHalted()  returns FALSE (0001ms, 115293ms total)
T4674 17173:002 JLINK_IsHalted()  returns FALSE (0001ms, 115294ms total)
T4674 17173:204 JLINK_IsHalted()  returns FALSE (0001ms, 115294ms total)
T4674 17173:405 JLINK_IsHalted()  returns FALSE (0000ms, 115293ms total)
T4674 17173:607 JLINK_IsHalted()  returns FALSE (0001ms, 115294ms total)
T4674 17173:809 JLINK_IsHalted()  returns FALSE (0001ms, 115294ms total)
T4674 17174:012 JLINK_IsHalted()  returns FALSE (0001ms, 115294ms total)
T4674 17174:214 JLINK_IsHalted()  returns FALSE (0000ms, 115293ms total)
T4674 17174:415 JLINK_IsHalted()  returns FALSE (0000ms, 115293ms total)
T4674 17174:618 JLINK_IsHalted()  returns FALSE (0000ms, 115293ms total)
T4674 17174:819 JLINK_IsHalted()  returns FALSE (0001ms, 115294ms total)
T4674 17175:020 JLINK_IsHalted()  returns FALSE (0000ms, 115293ms total)
T4674 17175:222 JLINK_IsHalted()  returns FALSE (0000ms, 115293ms total)
T4674 17175:422 JLINK_IsHalted()  returns FALSE (0000ms, 115293ms total)
T4674 17175:623 JLINK_IsHalted()  returns FALSE (0000ms, 115293ms total)
T4674 17175:823 JLINK_IsHalted()  returns FALSE (0001ms, 115294ms total)
T4674 17176:027 JLINK_IsHalted()  returns FALSE (0001ms, 115294ms total)
T4674 17176:230 JLINK_IsHalted()  returns FALSE (0000ms, 115293ms total)
T4674 17176:431 JLINK_IsHalted()  returns FALSE (0001ms, 115294ms total)
T4674 17176:636 JLINK_IsHalted()  returns FALSE (0001ms, 115294ms total)
T4674 17176:837 JLINK_IsHalted()  returns FALSE (0001ms, 115294ms total)
T4674 17177:039 JLINK_IsHalted()  returns FALSE (0000ms, 115293ms total)
T4674 17177:240 JLINK_IsHalted()  returns FALSE (0000ms, 115293ms total)
T4674 17177:440 JLINK_IsHalted()  returns FALSE (0000ms, 115293ms total)
T4674 17177:641 JLINK_IsHalted()  returns FALSE (0001ms, 115294ms total)
T4674 17177:845 JLINK_IsHalted()  returns FALSE (0001ms, 115294ms total)
T4674 17178:046 JLINK_IsHalted()  returns FALSE (0001ms, 115294ms total)
T4674 17178:248 JLINK_IsHalted()  returns FALSE (0000ms, 115293ms total)
T4674 17178:449 JLINK_IsHalted()  returns FALSE (0001ms, 115294ms total)
T4674 17178:651 JLINK_IsHalted()  returns FALSE (0001ms, 115294ms total)
T4674 17178:853 JLINK_IsHalted()  returns FALSE (0000ms, 115293ms total)
T4674 17179:054 JLINK_IsHalted()  returns FALSE (0000ms, 115293ms total)
T4674 17179:255 JLINK_IsHalted()  returns FALSE (0001ms, 115294ms total)
T4674 17179:457 JLINK_IsHalted()  returns FALSE (0000ms, 115293ms total)
T4674 17179:658 JLINK_IsHalted()  returns FALSE (0000ms, 115293ms total)
T4674 17179:859 JLINK_IsHalted()  returns FALSE (0001ms, 115294ms total)
T4674 17180:063 JLINK_IsHalted()  returns FALSE (0000ms, 115293ms total)
T4674 17180:265 JLINK_IsHalted()  returns FALSE (0000ms, 115293ms total)
T4674 17180:467 JLINK_IsHalted()  returns FALSE (0001ms, 115294ms total)
T4674 17180:668 JLINK_IsHalted()  returns FALSE (0000ms, 115293ms total)
T4674 17180:869 JLINK_IsHalted()  returns FALSE (0000ms, 115293ms total)
T4674 17181:070 JLINK_IsHalted()  returns FALSE (0000ms, 115293ms total)
T4674 17181:271 JLINK_IsHalted()  returns FALSE (0000ms, 115293ms total)
T4674 17181:472 JLINK_IsHalted()  returns FALSE (0001ms, 115294ms total)
T4674 17181:677 JLINK_IsHalted()  returns FALSE (0000ms, 115293ms total)
T4674 17181:877 JLINK_IsHalted()  returns FALSE (0000ms, 115293ms total)
T4674 17182:079 JLINK_IsHalted()  returns FALSE (0000ms, 115293ms total)
T4674 17182:280 JLINK_IsHalted()  returns FALSE (0000ms, 115293ms total)
T4674 17182:481 JLINK_IsHalted()  returns FALSE (0000ms, 115293ms total)
T4674 17182:687 JLINK_IsHalted()  returns FALSE (0000ms, 115293ms total)
T4674 17182:889 JLINK_IsHalted()  returns FALSE (0001ms, 115294ms total)
T4674 17183:094 JLINK_IsHalted()  returns FALSE (0001ms, 115294ms total)
T4674 17183:298 JLINK_IsHalted()  returns FALSE (0000ms, 115293ms total)
T4674 17183:499 JLINK_IsHalted()  returns FALSE (0000ms, 115293ms total)
T4674 17183:700 JLINK_IsHalted()  returns FALSE (0000ms, 115293ms total)
T4674 17183:903 JLINK_IsHalted()  returns FALSE (0000ms, 115293ms total)
T4674 17184:103 JLINK_IsHalted()  returns FALSE (0001ms, 115294ms total)
T4674 17184:305 JLINK_IsHalted()  returns FALSE (0001ms, 115294ms total)
T4674 17184:506 JLINK_IsHalted()  returns FALSE (0001ms, 115294ms total)
T4674 17184:709 JLINK_IsHalted()  returns FALSE (0000ms, 115293ms total)
T4674 17184:911 JLINK_IsHalted()  returns FALSE (0000ms, 115293ms total)
T4674 17185:113 JLINK_IsHalted()  returns FALSE (0000ms, 115293ms total)
T4674 17185:313 JLINK_IsHalted()  returns FALSE (0000ms, 115293ms total)
T4674 17185:518 JLINK_IsHalted()  returns FALSE (0001ms, 115294ms total)
T4674 17185:720 JLINK_IsHalted()  returns FALSE (0000ms, 115293ms total)
T4674 17185:926 JLINK_IsHalted()  returns FALSE (0000ms, 115293ms total)
T4674 17186:127 JLINK_IsHalted()  returns FALSE (0000ms, 115293ms total)
T4674 17186:329 JLINK_IsHalted()  returns FALSE (0001ms, 115294ms total)
T4674 17186:530 JLINK_IsHalted()  returns FALSE (0000ms, 115293ms total)
T4674 17186:730 JLINK_IsHalted()  returns FALSE (0001ms, 115294ms total)
T4674 17186:931 JLINK_IsHalted()  returns FALSE (0000ms, 115293ms total)
T4674 17187:135 JLINK_IsHalted()  returns FALSE (0001ms, 115294ms total)
T4674 17187:337 JLINK_IsHalted()  returns FALSE (0000ms, 115293ms total)
T4674 17187:540 JLINK_IsHalted()  returns FALSE (0001ms, 115294ms total)
T4674 17187:743 JLINK_IsHalted()  returns FALSE (0000ms, 115293ms total)
T4674 17187:943 JLINK_IsHalted()  returns FALSE (0000ms, 115293ms total)
T4674 17188:143 JLINK_IsHalted()  returns FALSE (0000ms, 115293ms total)
T4674 17188:346 JLINK_IsHalted()  returns FALSE (0000ms, 115293ms total)
T4674 17188:547 JLINK_IsHalted()  returns FALSE (0000ms, 115293ms total)
T4674 17188:747 JLINK_IsHalted()  returns FALSE (0000ms, 115293ms total)
T4674 17188:948 JLINK_IsHalted()  returns FALSE (0000ms, 115293ms total)
T4674 17189:148 JLINK_IsHalted()  returns FALSE (0001ms, 115294ms total)
T4674 17189:349 JLINK_IsHalted()  returns FALSE (0000ms, 115293ms total)
T4674 17189:551 JLINK_IsHalted()  returns FALSE (0000ms, 115293ms total)
T4674 17189:751 JLINK_IsHalted()  returns FALSE (0001ms, 115294ms total)
T4674 17189:956 JLINK_IsHalted()  returns FALSE (0001ms, 115294ms total)
T4674 17190:159 JLINK_IsHalted()  returns FALSE (0001ms, 115294ms total)
T4674 17190:360 JLINK_IsHalted()  returns FALSE (0000ms, 115293ms total)
T4674 17190:564 JLINK_IsHalted()  returns FALSE (0000ms, 115293ms total)
T4674 17190:765 JLINK_IsHalted()  returns FALSE (0000ms, 115293ms total)
T4674 17190:966 JLINK_IsHalted()  returns FALSE (0000ms, 115293ms total)
T4674 17191:167 JLINK_IsHalted()  returns FALSE (0000ms, 115293ms total)
T4674 17191:368 JLINK_IsHalted()  returns FALSE (0000ms, 115293ms total)
T4674 17191:569 JLINK_IsHalted()  returns FALSE (0000ms, 115293ms total)
T4674 17191:769 JLINK_IsHalted()  returns FALSE (0001ms, 115294ms total)
T4674 17191:970 JLINK_IsHalted()  returns FALSE (0001ms, 115294ms total)
T4674 17192:173 JLINK_IsHalted()  returns FALSE (0000ms, 115293ms total)
T4674 17192:374 JLINK_IsHalted()  returns FALSE (0000ms, 115293ms total)
T4674 17192:575 JLINK_IsHalted()  returns FALSE (0000ms, 115293ms total)
T4674 17192:776 JLINK_IsHalted()  returns FALSE (0001ms, 115294ms total)
T4674 17192:978 JLINK_IsHalted()  returns FALSE (0001ms, 115294ms total)
T4674 17193:180 JLINK_IsHalted()  returns FALSE (0000ms, 115293ms total)
T4674 17193:382 JLINK_IsHalted()  returns FALSE (0001ms, 115294ms total)
T4674 17193:584 JLINK_IsHalted()  returns FALSE (0001ms, 115294ms total)
T4674 17193:785 JLINK_IsHalted()  returns FALSE (0001ms, 115294ms total)
T4674 17193:990 JLINK_IsHalted()  returns FALSE (0001ms, 115294ms total)
T4674 17194:191 JLINK_IsHalted()  returns FALSE (0000ms, 115293ms total)
T4674 17194:394 JLINK_IsHalted()  returns FALSE (0000ms, 115293ms total)
T4674 17194:598 JLINK_IsHalted()  returns FALSE (0000ms, 115293ms total)
T4674 17194:799 JLINK_IsHalted()  returns FALSE (0000ms, 115293ms total)
T4674 17195:002 JLINK_IsHalted()  returns FALSE (0001ms, 115294ms total)
T4674 17195:204 JLINK_IsHalted()  returns FALSE (0000ms, 115293ms total)
T4674 17195:404 JLINK_IsHalted()  returns FALSE (0000ms, 115293ms total)
T4674 17195:604 JLINK_IsHalted()  returns FALSE (0000ms, 115293ms total)
T4674 17195:805 JLINK_IsHalted()  returns FALSE (0000ms, 115293ms total)
T4674 17196:007 JLINK_IsHalted()  returns FALSE (0001ms, 115294ms total)
T4674 17196:210 JLINK_IsHalted()  returns FALSE (0001ms, 115294ms total)
T4674 17196:412 JLINK_IsHalted()  returns FALSE (0001ms, 115294ms total)
T4674 17196:615 JLINK_IsHalted()  returns FALSE (0001ms, 115294ms total)
T4674 17196:817 JLINK_IsHalted()  returns FALSE (0001ms, 115294ms total)
T4674 17197:018 JLINK_IsHalted()  returns FALSE (0001ms, 115294ms total)
T4674 17197:220 JLINK_IsHalted()  returns FALSE (0000ms, 115293ms total)
T4674 17197:422 JLINK_IsHalted()  returns FALSE (0009ms, 115302ms total)
T4674 17197:636 JLINK_IsHalted()  returns FALSE (0000ms, 115293ms total)
T4674 17197:837 JLINK_IsHalted()  returns FALSE (0000ms, 115293ms total)
T4674 17198:039 JLINK_IsHalted()  returns FALSE (0000ms, 115293ms total)
T4674 17198:247 JLINK_IsHalted()  returns FALSE (0000ms, 115293ms total)
T4674 17198:450 JLINK_IsHalted()  returns FALSE (0000ms, 115293ms total)
T4674 17198:654 JLINK_IsHalted()  returns FALSE (0001ms, 115294ms total)
T0EE8 17198:724 JLINK_Halt()  returns 0x00 (0004ms, 115297ms total)
T4674 17198:856 JLINK_IsHalted()  returns TRUE (0000ms, 115297ms total)
T4674 17198:856 JLINK_GetMOEs(...) -- CPU_ReadMem(4 bytes @ 0xE000ED30)  returns 0x01 (0000ms, 115297ms total)
T4674 17198:856 JLINK_ReadReg(R15 (PC))  returns 0x000005A2 (0000ms, 115297ms total)
T0EE8 17198:865 JLINK_ReadReg(R15 (PC))  returns 0x000005A2 (0000ms, 115297ms total)
T0EE8 17198:865 JLINK_ReadReg(R13 (SP))  returns 0x2002A860 (0000ms, 115297ms total)
T4674 17199:056 JLINK_IsHalted()  returns TRUE (0000ms, 115297ms total)
T4674 17199:259 JLINK_IsHalted()  returns TRUE (0000ms, 115297ms total)
T4674 17199:463 JLINK_IsHalted()  returns TRUE (0000ms, 115297ms total)
T4674 17199:663 JLINK_IsHalted()  returns TRUE (0000ms, 115297ms total)
T4674 17199:867 JLINK_IsHalted()  returns TRUE (0000ms, 115297ms total)
T4674 17200:069 JLINK_IsHalted()  returns TRUE (0000ms, 115297ms total)
T4674 17200:269 JLINK_IsHalted()  returns TRUE (0000ms, 115297ms total)
T0EE8 17200:286 JLINK_ReadMemHW(0x000005A2, 0x0004 Bytes, ...) -- CPU_ReadMem(4 bytes @ 0x000005A2) - Data: 00 28 FB D0  returns 0x00 (0001ms, 115298ms total)
T0EE8 17200:288 JLINK_ReadReg(R0)  returns 0x00000000 (0000ms, 115298ms total)
T0EE8 17200:288 JLINK_ReadReg(R1)  returns 0x0001B05C (0000ms, 115298ms total)
T0EE8 17200:288 JLINK_ReadReg(R2)  returns 0x0000010C (0000ms, 115298ms total)
T0EE8 17200:288 JLINK_ReadReg(R3)  returns 0x43000000 (0000ms, 115298ms total)
T0EE8 17200:288 JLINK_ReadReg(R4)  returns 0x2001ACA4 (0000ms, 115298ms total)
T0EE8 17200:288 JLINK_ReadReg(R5)  returns 0x00000B27 (0000ms, 115298ms total)
T0EE8 17200:288 JLINK_ReadReg(R6)  returns 0x00000000 (0000ms, 115298ms total)
T0EE8 17200:288 JLINK_ReadReg(R7)  returns 0x2002A89F (0000ms, 115298ms total)
T0EE8 17200:289 JLINK_ReadReg(R8)  returns 0x00000400 (0000ms, 115298ms total)
T0EE8 17200:289 JLINK_ReadReg(R9)  returns 0x00000B0B (0000ms, 115298ms total)
T0EE8 17200:289 JLINK_ReadReg(R10)  returns 0x3F800000 (0000ms, 115298ms total)
T0EE8 17200:289 JLINK_ReadReg(R11)  returns 0x00012591 (0000ms, 115298ms total)
T0EE8 17200:289 JLINK_ReadReg(R12)  returns 0x7FB2D3C1 (0000ms, 115298ms total)
T0EE8 17200:289 JLINK_ReadReg(R13 (SP))  returns 0x2002A860 (0000ms, 115298ms total)
T0EE8 17200:289 JLINK_ReadReg(R14)  returns 0x000005A3 (0000ms, 115298ms total)
T0EE8 17200:289 JLINK_ReadReg(R15 (PC))  returns 0x000005A2 (0000ms, 115298ms total)
T0EE8 17200:289 JLINK_ReadReg(XPSR)  returns 0x61000000 (0000ms, 115298ms total)
T0EE8 17200:289 JLINK_ReadReg(MSP)  returns 0x2002A860 (0000ms, 115298ms total)
T0EE8 17200:289 JLINK_ReadReg(PSP)  returns 0xFFB7FA3C (0000ms, 115298ms total)
T0EE8 17200:289 JLINK_ReadReg(PRIMASK)  returns 0x00000000 (0000ms, 115298ms total)
T0EE8 17200:289 JLINK_ReadReg(BASEPRI)  returns 0x00000000 (0000ms, 115298ms total)
T0EE8 17200:289 JLINK_ReadReg(FAULTMASK)  returns 0x00000000 (0000ms, 115298ms total)
T0EE8 17200:289 JLINK_ReadReg(CONTROL)  returns 0x00000000 (0000ms, 115298ms total)
T0EE8 17200:289 JLINK_ReadReg(FPSCR)  returns 0x00000000 (0007ms, 115305ms total)
T0EE8 17200:296 JLINK_ReadReg(FPS0)  returns 0x2981091B (0000ms, 115305ms total)
T0EE8 17200:296 JLINK_ReadReg(FPS1)  returns 0x00001289 (0000ms, 115305ms total)
